! NanoVNA-App
! Date: 2022-12-12 20:10:53
! Start: 1MHz Stop: 9GHz Points: 5000
! S-Parameter data: F S11 S21 S12 S22
# Hz S RI R 50
!     Frequency           S11_Real           S11_Imag           S21_Real           S21_Imag           S12_Real           S12_Imag           S22_Real           S22_Imag
        1000000    1.402409689e-04    0.000000000e+00    0.000000000e+00    0.000000000e+00    0.000000000e+00    0.000000000e+00    0.000000000e+00    0.000000000e+00
        2800160    1.573530171e-04    0.000000000e+00    0.000000000e+00    0.000000000e+00    0.000000000e+00    0.000000000e+00    0.000000000e+00    0.000000000e+00
        4600320    7.445173105e-05    0.000000000e+00    0.000000000e+00    0.000000000e+00    0.000000000e+00    0.000000000e+00    0.000000000e+00    0.000000000e+00
        6400480    3.731428296e-05    0.000000000e+00    0.000000000e+00    0.000000000e+00    0.000000000e+00    0.000000000e+00    0.000000000e+00    0.000000000e+00
        8200640    1.980956768e-05    0.000000000e+00    0.000000000e+00    0.000000000e+00    0.000000000e+00    0.000000000e+00    0.000000000e+00    0.000000000e+00
       10000800    1.666768185e-05    0.000000000e+00    0.000000000e+00    0.000000000e+00    0.000000000e+00    0.000000000e+00    0.000000000e+00    0.000000000e+00
       11800960    1.055449593e-05    0.000000000e+00    0.000000000e+00    0.000000000e+00    0.000000000e+00    0.000000000e+00    0.000000000e+00    0.000000000e+00
       13601120    2.502865391e-05    0.000000000e+00    0.000000000e+00    0.000000000e+00    0.000000000e+00    0.000000000e+00    0.000000000e+00    0.000000000e+00
       15401280    2.808262434e-05    0.000000000e+00    0.000000000e+00    0.000000000e+00    0.000000000e+00    0.000000000e+00    0.000000000e+00    0.000000000e+00
       17201440    2.808262434e-05    0.000000000e+00    0.000000000e+00    0.000000000e+00    0.000000000e+00    0.000000000e+00    0.000000000e+00    0.000000000e+00
       19001600    2.808262434e-05    0.000000000e+00    0.000000000e+00    0.000000000e+00    0.000000000e+00    0.000000000e+00    0.000000000e+00    0.000000000e+00
       20801760    1.407464697e-05    0.000000000e+00    0.000000000e+00    0.000000000e+00    0.000000000e+00    0.000000000e+00    0.000000000e+00    0.000000000e+00
       22601920    1.258925204e-05    0.000000000e+00    0.000000000e+00    0.000000000e+00    0.000000000e+00    0.000000000e+00    0.000000000e+00    0.000000000e+00
       24402080    1.995263119e-05    0.000000000e+00    0.000000000e+00    0.000000000e+00    0.000000000e+00    0.000000000e+00    0.000000000e+00    0.000000000e+00
       26202240    1.778279329e-05    0.000000000e+00    0.000000000e+00    0.000000000e+00    0.000000000e+00    0.000000000e+00    0.000000000e+00    0.000000000e+00
       28002400    1.678803710e-05    0.000000000e+00    0.000000000e+00    0.000000000e+00    0.000000000e+00    0.000000000e+00    0.000000000e+00    0.000000000e+00
       29802561    1.333521413e-05    0.000000000e+00    0.000000000e+00    0.000000000e+00    0.000000000e+00    0.000000000e+00    0.000000000e+00    0.000000000e+00
       31602721    1.883649384e-05    0.000000000e+00    0.000000000e+00    0.000000000e+00    0.000000000e+00    0.000000000e+00    0.000000000e+00    0.000000000e+00
       33402881    1.890439125e-05    0.000000000e+00    0.000000000e+00    0.000000000e+00    0.000000000e+00    0.000000000e+00    0.000000000e+00    0.000000000e+00
       35203041    2.121106081e-05    0.000000000e+00    0.000000000e+00    0.000000000e+00    0.000000000e+00    0.000000000e+00    0.000000000e+00    0.000000000e+00
       37003201    2.670313916e-05    0.000000000e+00    0.000000000e+00    0.000000000e+00    0.000000000e+00    0.000000000e+00    0.000000000e+00    0.000000000e+00
       38803361    3.771919364e-05    0.000000000e+00    0.000000000e+00    0.000000000e+00    0.000000000e+00    0.000000000e+00    0.000000000e+00    0.000000000e+00
       40603521    2.520941052e-05    0.000000000e+00    0.000000000e+00    0.000000000e+00    0.000000000e+00    0.000000000e+00    0.000000000e+00    0.000000000e+00
       42403681    2.828540528e-05    0.000000000e+00    0.000000000e+00    0.000000000e+00    0.000000000e+00    0.000000000e+00    0.000000000e+00    0.000000000e+00
       44203841    2.379921352e-05    0.000000000e+00    0.000000000e+00    0.000000000e+00    0.000000000e+00    0.000000000e+00    0.000000000e+00    0.000000000e+00
       46004001    1.507040452e-05    0.000000000e+00    0.000000000e+00    0.000000000e+00    0.000000000e+00    0.000000000e+00    0.000000000e+00    0.000000000e+00
       47804161    3.185115565e-05    0.000000000e+00    0.000000000e+00    0.000000000e+00    0.000000000e+00    0.000000000e+00    0.000000000e+00    0.000000000e+00
       49604321    2.009670789e-05    0.000000000e+00    0.000000000e+00    0.000000000e+00    0.000000000e+00    0.000000000e+00    0.000000000e+00    0.000000000e+00
       51404481    3.573756112e-05    0.000000000e+00    0.000000000e+00    0.000000000e+00    0.000000000e+00    0.000000000e+00    0.000000000e+00    0.000000000e+00
       53204641    1.897251059e-05    0.000000000e+00    0.000000000e+00    0.000000000e+00    0.000000000e+00    0.000000000e+00    0.000000000e+00    0.000000000e+00
       55004801    3.185115565e-05    0.000000000e+00    0.000000000e+00    0.000000000e+00    0.000000000e+00    0.000000000e+00    0.000000000e+00    0.000000000e+00
       56804961    2.689598841e-05    0.000000000e+00    0.000000000e+00    0.000000000e+00    0.000000000e+00    0.000000000e+00    0.000000000e+00    0.000000000e+00
       58605121    2.539144407e-05    0.000000000e+00    0.000000000e+00    0.000000000e+00    0.000000000e+00    0.000000000e+00    0.000000000e+00    0.000000000e+00
       60405281    2.397106437e-05    0.000000000e+00    0.000000000e+00    0.000000000e+00    0.000000000e+00    0.000000000e+00    0.000000000e+00    0.000000000e+00
       62205441    1.697022890e-05    0.000000000e+00    0.000000000e+00    0.000000000e+00    0.000000000e+00    0.000000000e+00    0.000000000e+00    0.000000000e+00
       64005601    9.009228052e-06    0.000000000e+00    0.000000000e+00    0.000000000e+00    0.000000000e+00    0.000000000e+00    0.000000000e+00    0.000000000e+00
       65805761    2.136424700e-05    0.000000000e+00    0.000000000e+00    0.000000000e+00    0.000000000e+00    0.000000000e+00    0.000000000e+00    0.000000000e+00
       67605921    1.804055501e-05    0.000000000e+00    0.000000000e+00    0.000000000e+00    0.000000000e+00    0.000000000e+00    0.000000000e+00    0.000000000e+00
       69406081    1.205730314e-05    0.000000000e+00    0.000000000e+00    0.000000000e+00    0.000000000e+00    0.000000000e+00    0.000000000e+00    0.000000000e+00
       71206241    1.607867125e-05    0.000000000e+00    0.000000000e+00    0.000000000e+00    0.000000000e+00    0.000000000e+00    0.000000000e+00    0.000000000e+00
       73006401    2.016914550e-05    0.000000000e+00    0.000000000e+00    0.000000000e+00    0.000000000e+00    0.000000000e+00    0.000000000e+00    0.000000000e+00
       74806561    1.201399937e-05    0.000000000e+00    0.000000000e+00    0.000000000e+00    0.000000000e+00    0.000000000e+00    0.000000000e+00    0.000000000e+00
       76606721    9.543060514e-06    0.000000000e+00    0.000000000e+00    0.000000000e+00    0.000000000e+00    0.000000000e+00    0.000000000e+00    0.000000000e+00
       78406881    1.343152053e-05    0.000000000e+00    0.000000000e+00    0.000000000e+00    0.000000000e+00    0.000000000e+00    0.000000000e+00    0.000000000e+00
       80207041    1.791122122e-05    0.000000000e+00    0.000000000e+00    0.000000000e+00    0.000000000e+00    0.000000000e+00    0.000000000e+00    0.000000000e+00
       82007201    8.444273590e-06    0.000000000e+00    0.000000000e+00    0.000000000e+00    0.000000000e+00    0.000000000e+00    0.000000000e+00    0.000000000e+00
       83807361    1.501627867e-05    0.000000000e+00    0.000000000e+00    0.000000000e+00    0.000000000e+00    0.000000000e+00    0.000000000e+00    0.000000000e+00
       85607522    1.590605279e-05    0.000000000e+00    0.000000000e+00    0.000000000e+00    0.000000000e+00    0.000000000e+00    0.000000000e+00    0.000000000e+00
       87407682    2.660726204e-05    0.000000000e+00    0.000000000e+00    0.000000000e+00    0.000000000e+00    0.000000000e+00    0.000000000e+00    0.000000000e+00
       89207842    2.660726204e-05    0.000000000e+00    0.000000000e+00    0.000000000e+00    0.000000000e+00    0.000000000e+00    0.000000000e+00    0.000000000e+00
       91008002    1.883649384e-05    0.000000000e+00    0.000000000e+00    0.000000000e+00    0.000000000e+00    0.000000000e+00    0.000000000e+00    0.000000000e+00
       92808162    1.771892676e-05    0.000000000e+00    0.000000000e+00    0.000000000e+00    0.000000000e+00    0.000000000e+00    0.000000000e+00    0.000000000e+00
       94608322    2.974659765e-05    0.000000000e+00    0.000000000e+00    0.000000000e+00    0.000000000e+00    0.000000000e+00    0.000000000e+00    0.000000000e+00
       96408482    8.848610378e-06    0.000000000e+00    0.000000000e+00    0.000000000e+00    0.000000000e+00    0.000000000e+00    0.000000000e+00    0.000000000e+00
       98208642    2.963979387e-05    0.000000000e+00    0.000000000e+00    0.000000000e+00    0.000000000e+00    0.000000000e+00    0.000000000e+00    0.000000000e+00
      100008802    3.325637226e-05    0.000000000e+00    0.000000000e+00    0.000000000e+00    0.000000000e+00    0.000000000e+00    0.000000000e+00    0.000000000e+00
      101808962    2.953334115e-05    0.000000000e+00    0.000000000e+00    0.000000000e+00    0.000000000e+00    0.000000000e+00    0.000000000e+00    0.000000000e+00
      103609122    9.339262760e-06    0.000000000e+00    0.000000000e+00    0.000000000e+00    0.000000000e+00    0.000000000e+00    0.000000000e+00    0.000000000e+00
      105409282    4.958068166e-05    0.000000000e+00    0.000000000e+00    0.000000000e+00    0.000000000e+00    0.000000000e+00    0.000000000e+00    0.000000000e+00
      107209442    3.301795732e-05    0.000000000e+00    0.000000000e+00    0.000000000e+00    0.000000000e+00    0.000000000e+00    0.000000000e+00    0.000000000e+00
      109009602    1.752871503e-05    0.000000000e+00    0.000000000e+00    0.000000000e+00    0.000000000e+00    0.000000000e+00    0.000000000e+00    0.000000000e+00
      110809762    2.942727224e-05    0.000000000e+00    0.000000000e+00    0.000000000e+00    0.000000000e+00    0.000000000e+00    0.000000000e+00    0.000000000e+00
      112609922    3.484878835e-05    0.000000000e+00    0.000000000e+00    0.000000000e+00    0.000000000e+00    0.000000000e+00    0.000000000e+00    0.000000000e+00
      114410082    2.768135346e-05    0.000000000e+00    0.000000000e+00    0.000000000e+00    0.000000000e+00    0.000000000e+00    0.000000000e+00    0.000000000e+00
      116210242    1.746576163e-05    0.000000000e+00    0.000000000e+00    0.000000000e+00    0.000000000e+00    0.000000000e+00    0.000000000e+00    0.000000000e+00
      118010402    4.141784666e-05    0.000000000e+00    0.000000000e+00    0.000000000e+00    0.000000000e+00    0.000000000e+00    0.000000000e+00    0.000000000e+00
      119810562    2.075808698e-05    0.000000000e+00    0.000000000e+00    0.000000000e+00    0.000000000e+00    0.000000000e+00    0.000000000e+00    0.000000000e+00
      121610722    3.105900396e-05    0.000000000e+00    0.000000000e+00    0.000000000e+00    0.000000000e+00    0.000000000e+00    0.000000000e+00    0.000000000e+00
      123410882    2.467104787e-05    0.000000000e+00    0.000000000e+00    0.000000000e+00    0.000000000e+00    0.000000000e+00    0.000000000e+00    0.000000000e+00
      125211042    1.236480875e-05    0.000000000e+00    0.000000000e+00    0.000000000e+00    0.000000000e+00    0.000000000e+00    0.000000000e+00    0.000000000e+00
      127011202    3.484878835e-05    0.000000000e+00    0.000000000e+00    0.000000000e+00    0.000000000e+00    0.000000000e+00    0.000000000e+00    0.000000000e+00
      128811362    2.613290599e-05    0.000000000e+00    0.000000000e+00    0.000000000e+00    0.000000000e+00    0.000000000e+00    0.000000000e+00    0.000000000e+00
      130611522    2.932158168e-05    0.000000000e+00    0.000000000e+00    0.000000000e+00    0.000000000e+00    0.000000000e+00    0.000000000e+00    0.000000000e+00
      132411682    2.198808579e-05    0.000000000e+00    0.000000000e+00    0.000000000e+00    0.000000000e+00    0.000000000e+00    0.000000000e+00    0.000000000e+00
      134211842    1.040369443e-05    0.000000000e+00    0.000000000e+00    0.000000000e+00    0.000000000e+00    0.000000000e+00    0.000000000e+00    0.000000000e+00
      136012002    1.959691326e-05    0.000000000e+00    0.000000000e+00    0.000000000e+00    0.000000000e+00    0.000000000e+00    0.000000000e+00    0.000000000e+00
      137812162    1.850067565e-05    0.000000000e+00    0.000000000e+00    0.000000000e+00    0.000000000e+00    0.000000000e+00    0.000000000e+00    0.000000000e+00
      139612322    1.040369443e-05    0.000000000e+00    0.000000000e+00    0.000000000e+00    0.000000000e+00    0.000000000e+00    0.000000000e+00    0.000000000e+00
      141412482    1.746576163e-05    0.000000000e+00    0.000000000e+00    0.000000000e+00    0.000000000e+00    0.000000000e+00    0.000000000e+00    0.000000000e+00
      143212643    1.850067565e-05    0.000000000e+00    0.000000000e+00    0.000000000e+00    0.000000000e+00    0.000000000e+00    0.000000000e+00    0.000000000e+00
      145012803    1.387354951e-05    0.000000000e+00    0.000000000e+00    0.000000000e+00    0.000000000e+00    0.000000000e+00    0.000000000e+00    0.000000000e+00
      146812963    1.309747313e-05    0.000000000e+00    0.000000000e+00    0.000000000e+00    0.000000000e+00    0.000000000e+00    0.000000000e+00    0.000000000e+00
      148613123    1.167312985e-05    0.000000000e+00    0.000000000e+00    0.000000000e+00    0.000000000e+00    0.000000000e+00    0.000000000e+00    0.000000000e+00
      150413283    1.309747313e-05    0.000000000e+00    0.000000000e+00    0.000000000e+00    0.000000000e+00    0.000000000e+00    0.000000000e+00    0.000000000e+00
      152213443    1.469561266e-05    0.000000000e+00    0.000000000e+00    0.000000000e+00    0.000000000e+00    0.000000000e+00    0.000000000e+00    0.000000000e+00
      154013603    2.467104787e-05    0.000000000e+00    0.000000000e+00    0.000000000e+00    0.000000000e+00    0.000000000e+00    0.000000000e+00    0.000000000e+00
      155813763    6.564283012e-06    0.000000000e+00    0.000000000e+00    0.000000000e+00    0.000000000e+00    0.000000000e+00    0.000000000e+00    0.000000000e+00
      157613923    1.746576163e-05    0.000000000e+00    0.000000000e+00    0.000000000e+00    0.000000000e+00    0.000000000e+00    0.000000000e+00    0.000000000e+00
      159414083    2.198808579e-05    0.000000000e+00    0.000000000e+00    0.000000000e+00    0.000000000e+00    0.000000000e+00    0.000000000e+00    0.000000000e+00
      161214243    2.768135346e-05    0.000000000e+00    0.000000000e+00    0.000000000e+00    0.000000000e+00    0.000000000e+00    0.000000000e+00    0.000000000e+00
      163014403    2.198808579e-05    0.000000000e+00    0.000000000e+00    0.000000000e+00    0.000000000e+00    0.000000000e+00    0.000000000e+00    0.000000000e+00
      164814563    2.613290599e-05    0.000000000e+00    0.000000000e+00    0.000000000e+00    0.000000000e+00    0.000000000e+00    0.000000000e+00    0.000000000e+00
      166614723    2.768135346e-05    0.000000000e+00    0.000000000e+00    0.000000000e+00    0.000000000e+00    0.000000000e+00    0.000000000e+00    0.000000000e+00
      168414883    2.613290599e-05    0.000000000e+00    0.000000000e+00    0.000000000e+00    0.000000000e+00    0.000000000e+00    0.000000000e+00    0.000000000e+00
      170215043    2.329096606e-05    0.000000000e+00    0.000000000e+00    0.000000000e+00    0.000000000e+00    0.000000000e+00    0.000000000e+00    0.000000000e+00
      172015203    2.198808579e-05    0.000000000e+00    0.000000000e+00    0.000000000e+00    0.000000000e+00    0.000000000e+00    0.000000000e+00    0.000000000e+00
      173815363    1.236480875e-05    0.000000000e+00    0.000000000e+00    0.000000000e+00    0.000000000e+00    0.000000000e+00    0.000000000e+00    0.000000000e+00
      175615523    3.484878835e-05    0.000000000e+00    0.000000000e+00    0.000000000e+00    0.000000000e+00    0.000000000e+00    0.000000000e+00    0.000000000e+00
      177415683    3.289937013e-05    0.000000000e+00    0.000000000e+00    0.000000000e+00    0.000000000e+00    0.000000000e+00    0.000000000e+00    0.000000000e+00
      179215843    9.272298485e-06    0.000000000e+00    0.000000000e+00    0.000000000e+00    0.000000000e+00    0.000000000e+00    0.000000000e+00    0.000000000e+00
      181016003    2.768135346e-05    0.000000000e+00    0.000000000e+00    0.000000000e+00    0.000000000e+00    0.000000000e+00    0.000000000e+00    0.000000000e+00
      182816163    1.648873695e-05    0.000000000e+00    0.000000000e+00    0.000000000e+00    0.000000000e+00    0.000000000e+00    0.000000000e+00    0.000000000e+00
      184616323    1.556636926e-05    0.000000000e+00    0.000000000e+00    0.000000000e+00    0.000000000e+00    0.000000000e+00    0.000000000e+00    0.000000000e+00
      186416483    1.850067565e-05    0.000000000e+00    0.000000000e+00    0.000000000e+00    0.000000000e+00    0.000000000e+00    0.000000000e+00    0.000000000e+00
      188216643    1.469561266e-05    0.000000000e+00    0.000000000e+00    0.000000000e+00    0.000000000e+00    0.000000000e+00    0.000000000e+00    0.000000000e+00
      190016803    6.564283012e-06    0.000000000e+00    0.000000000e+00    0.000000000e+00    0.000000000e+00    0.000000000e+00    0.000000000e+00    0.000000000e+00
      191816963    1.746576163e-05    0.000000000e+00    0.000000000e+00    0.000000000e+00    0.000000000e+00    0.000000000e+00    0.000000000e+00    0.000000000e+00
      193617123    6.953242973e-06    0.000000000e+00    0.000000000e+00    0.000000000e+00    0.000000000e+00    0.000000000e+00    0.000000000e+00    0.000000000e+00
      195417283    1.648873695e-05    0.000000000e+00    0.000000000e+00    0.000000000e+00    0.000000000e+00    0.000000000e+00    0.000000000e+00    0.000000000e+00
      197217443    1.236480875e-05    0.000000000e+00    0.000000000e+00    0.000000000e+00    0.000000000e+00    0.000000000e+00    0.000000000e+00    0.000000000e+00
      199017604    1.309747313e-05    0.000000000e+00    0.000000000e+00    0.000000000e+00    0.000000000e+00    0.000000000e+00    0.000000000e+00    0.000000000e+00
      200817764    1.648873695e-05    0.000000000e+00    0.000000000e+00    0.000000000e+00    0.000000000e+00    0.000000000e+00    0.000000000e+00    0.000000000e+00
      202617924    1.850067565e-05    0.000000000e+00    0.000000000e+00    0.000000000e+00    0.000000000e+00    0.000000000e+00    0.000000000e+00    0.000000000e+00
      204418084    2.075808698e-05    0.000000000e+00    0.000000000e+00    0.000000000e+00    0.000000000e+00    0.000000000e+00    0.000000000e+00    0.000000000e+00
      206218244    2.075808698e-05    0.000000000e+00    0.000000000e+00    0.000000000e+00    0.000000000e+00    0.000000000e+00    0.000000000e+00    0.000000000e+00
      208018404    1.236480875e-05    0.000000000e+00    0.000000000e+00    0.000000000e+00    0.000000000e+00    0.000000000e+00    0.000000000e+00    0.000000000e+00
